T079C 000:158.579   SEGGER J-Link V7.00 Log File
T079C 000:158.691   DLL Compiled: Apr  8 2021 14:30:05
T079C 000:158.696   Logging started @ 2022-01-29 06:42
T079C 000:158.700 - 158.703ms
T079C 000:158.708 JLINK_SetWarnOutHandler(...)
T079C 000:158.714 - 0.008ms
T079C 000:158.719 JLINK_OpenEx(...)
T079C 000:164.639   TELNET listener socket opened on port 19021
T079C 000:164.735   WEBSRV Starting webserver
T079C 000:164.791   WEBSRV Failed to put socket into listener state (port 19080)
T079C 000:165.076   WEBSRV Webserver running on local port 19081
T079C 000:165.085 - 6.368ms returns "O.K."
T079C 000:165.131 JLINK_SetErrorOutHandler(...)
T079C 000:165.137 - 0.008ms
T079C 000:165.150 JLINK_ExecCommand("ProjectFile = "D:\cccc2020\CODE\workspace\bfsk_pt32\embedded\test_coremark\MDK\JLinkSettings.ini"", ...). 
T079C 000:179.304 - 14.170ms returns 0x00
T079C 000:179.739 JLINK_ExecCommand("Device = ARMCM3", ...). 
T079C 000:179.861   Device "CORTEX-M3" selected.
T079C 000:180.224 - 0.477ms returns 0x00
T079C 000:180.240 JLINK_GetHardwareVersion()
T079C 000:181.414 - 1.186ms returns 540000
T079C 000:181.449 JLINK_GetDLLVersion()
T079C 000:181.455 - 0.007ms returns 70000
T079C 000:181.461 JLINK_GetOEMString(...)
T079C 000:181.466 JLINK_GetFirmwareString(...)
T079C 000:181.471 - 0.007ms
T079C 000:181.600 JLINK_GetDLLVersion()
T079C 000:181.606 - 0.008ms returns 70000
T079C 000:181.611 JLINK_GetCompileDateTime()
T079C 000:181.615 - 0.006ms
T079C 000:181.663 JLINK_GetFirmwareString(...)
T079C 000:181.669 - 0.008ms
T079C 000:181.699 JLINK_GetHardwareVersion()
T079C 000:181.705 - 0.008ms returns 540000
T079C 000:181.735 JLINK_GetSN()
T079C 000:181.741 - 0.008ms returns 1041739512
T079C 000:181.765 JLINK_GetOEMString(...)
T079C 000:181.794 JLINK_TIF_Select(JLINKARM_TIF_SWD)
T079C 000:185.421 - 3.644ms returns 0x00
T079C 000:185.472 JLINK_HasError()
T079C 000:185.491 JLINK_SetSpeed(5000)
T079C 000:186.455 - 0.976ms
T079C 000:186.498 JLINK_GetId()
T079C 000:198.383   Found SW-DP with ID 0x2BA01477
T079C 000:218.556   Old FW that does not support reading DPIDR via DAP jobs
T079C 000:222.626   DPv0 detected
T079C 000:222.667   Scanning AP map to find all available APs
T079C 000:227.626   AP[1]: Stopped AP scan as end of AP map has been reached
T079C 000:227.674   AP[0]: AHB-AP (IDR: 0x24770011)
T079C 000:227.699   Iterating through AP map to find AHB-AP to use
T079C 000:232.670   AP[0]: Core found
T079C 000:232.711   AP[0]: AHB-AP ROM base: 0xE00FF000
T079C 000:235.535   CPUID register: 0x412FC231. Implementer code: 0x41 (ARM)
T079C 000:235.603   Found Cortex-M3 r2p1, Little endian.
T079C 000:337.735   -- Max. mem block: 0xFFFFFEFA
T079C 000:337.761    -- CPU_ReadMem(4 bytes @ 0xE000EDF0)
T079C 000:348.369    -- CPU_ReadMem(4 bytes @ 0xE0002000)
T079C 000:358.423   FPUnit: 6 code (BP) slots and 2 literal slots
T079C 000:358.435    -- CPU_ReadMem(4 bytes @ 0xE000EDFC)
T079C 000:368.369    -- CPU_ReadMem(4 bytes @ 0xE0001000)
T079C 000:378.373    -- CPU_WriteMem(4 bytes @ 0xE0001000)
T079C 000:393.391    -- CPU_ReadMem(4 bytes @ 0xE000ED88)
T079C 000:403.375    -- CPU_WriteMem(4 bytes @ 0xE000ED88)
T079C 000:416.350    -- CPU_ReadMem(4 bytes @ 0xE000ED88)
T079C 000:426.363    -- CPU_WriteMem(4 bytes @ 0xE000ED88)
T079C 000:440.406   CoreSight components:
T079C 000:440.439   ROMTbl[0] @ E00FF000
T079C 000:440.448    -- CPU_ReadMem(64 bytes @ 0xE00FF000)
T079C 000:455.400    -- CPU_ReadMem(32 bytes @ 0xE000EFE0)
T079C 000:465.414   ROMTbl[0][0]: E000E000, CID: B105E00D, PID: 000BB000 SCS
T079C 000:465.426    -- CPU_ReadMem(32 bytes @ 0xE0001FE0)
T079C 000:475.779   ROMTbl[0][1]: E0001000, CID: B105E00D, PID: 003BB002 DWT
T079C 000:475.816    -- CPU_ReadMem(32 bytes @ 0xE0002FE0)
T079C 000:486.370   ROMTbl[0][2]: E0002000, CID: B105E00D, PID: 002BB003 FPB
T079C 000:486.383    -- CPU_ReadMem(32 bytes @ 0xE0000FE0)
T079C 000:496.354   ROMTbl[0][3]: E0000000, CID: B105E00D, PID: 003BB001 ITM
T079C 000:496.367    -- CPU_ReadMem(32 bytes @ 0xE0040FE0)
T079C 000:506.409   ROMTbl[0][4]: E0040000, CID: B105900D, PID: 003BB923 TPIU-Lite
T079C 000:506.471    -- CPU_ReadMem(32 bytes @ 0xE0041FE0)
T079C 000:516.401   ROMTbl[0][5]: E0041000, CID: 00000000, PID: 00000000 ???
T079C 000:518.364 - 331.872ms returns 0x2BA01477
T079C 000:518.400 JLINK_GetDLLVersion()
T079C 000:518.405 - 0.007ms returns 70000
T079C 000:518.411 JLINK_CORE_GetFound()
T079C 000:518.415 - 0.006ms returns 0x30000FF
T079C 000:518.421 JLINK_GetDebugInfo(0x100 = JLINKARM_ROM_TABLE_ADDR_INDEX)
T079C 000:518.426   Value=0xE00FF000
T079C 000:518.453 - 0.034ms returns 0
T079C 000:518.515 JLINK_GetDebugInfo(0x100 = JLINKARM_ROM_TABLE_ADDR_INDEX)
T079C 000:518.521   Value=0xE00FF000
T079C 000:518.527 - 0.014ms returns 0
T079C 000:518.533 JLINK_GetDebugInfo(0x101 = JLINKARM_DEBUG_INFO_ETM_ADDR_INDEX)
T079C 000:518.557   Value=0x00000000
T079C 000:518.563 - 0.032ms returns 0
T079C 000:518.569 JLINK_ReadMem(0xE0041FF0, 0x10 Bytes, ...)
T079C 000:518.587    -- CPU_ReadMem(16 bytes @ 0xE0041FF0)
T079C 000:530.362   Data:  00 00 00 00 00 00 00 00 00 00 00 00 00 00 00 00
T079C 000:530.375 - 11.808ms returns 0
T079C 000:530.402 JLINK_GetDebugInfo(0x102 = JLINKARM_DEBUG_INFO_MTB_ADDR_INDEX)
T079C 000:530.408   Value=0x00000000
T079C 000:530.414 - 0.014ms returns 0
T079C 000:530.420 JLINK_GetDebugInfo(0x103 = JLINKARM_DEBUG_INFO_TPIU_ADDR_INDEX)
T079C 000:530.424   Value=0xE0040000
T079C 000:530.430 - 0.012ms returns 0
T079C 000:530.435 JLINK_GetDebugInfo(0x104 = JLINKARM_DEBUG_INFO_ITM_ADDR_INDEX)
T079C 000:530.440   Value=0xE0000000
T079C 000:530.463 - 0.030ms returns 0
T079C 000:530.469 JLINK_GetDebugInfo(0x105 = JLINKARM_DEBUG_INFO_DWT_ADDR_INDEX)
T079C 000:530.474   Value=0xE0001000
T079C 000:530.495 - 0.028ms returns 0
T079C 000:530.500 JLINK_GetDebugInfo(0x106 = JLINKARM_DEBUG_INFO_FPB_ADDR_INDEX)
T079C 000:530.505   Value=0xE0002000
T079C 000:530.511 - 0.012ms returns 0
T079C 000:530.516 JLINK_GetDebugInfo(0x107 = JLINKARM_DEBUG_INFO_NVIC_ADDR_INDEX)
T079C 000:530.520   Value=0xE000E000
T079C 000:530.526 - 0.012ms returns 0
T079C 000:530.531 JLINK_GetDebugInfo(0x10C = JLINKARM_DEBUG_INFO_DBG_ADDR_INDEX)
T079C 000:530.535   Value=0xE000EDF0
T079C 000:530.541 - 0.012ms returns 0
T079C 000:530.547 JLINK_ReadMemU32(0xE000ED00, 0x1 Items)
T079C 000:530.557    -- CPU_ReadMem(4 bytes @ 0xE000ED00)
T079C 000:559.450   Data:  31 C2 2F 41
T079C 000:559.480   Debug reg: CPUID
T079C 000:559.487 - 28.943ms returns 1 (0x1)
T079C 000:559.529 JLINK_HasError()
T079C 000:559.539 JLINK_SetResetType(JLINKARM_CM3_RESET_TYPE_NORMAL)
T079C 000:559.544 - 0.031ms returns JLINKARM_CM3_RESET_TYPE_NORMAL
T079C 000:559.574 JLINK_Reset()
T079C 000:572.507   CPU is running
T079C 000:572.533    -- CPU_WriteMem(4 bytes @ 0xE000EDF0)
T079C 000:586.291   CPU is running
T079C 000:586.354    -- CPU_WriteMem(4 bytes @ 0xE000EDFC)
T079C 000:600.381   Reset: Halt core after reset via DEMCR.VC_CORERESET.
T079C 000:602.456   Reset: Reset device via AIRCR.SYSRESETREQ.
T079C 000:602.481   CPU is running
T079C 000:602.491    -- CPU_WriteMem(4 bytes @ 0xE000ED0C)
T079C 000:672.559    -- CPU_ReadMem(4 bytes @ 0xE000EDF0)
T079C 000:683.530    -- CPU_ReadMem(4 bytes @ 0xE000EDF0)
T079C 000:693.373   CPU is running
T079C 000:693.410    -- CPU_WriteMem(4 bytes @ 0xE000EDF0)
T079C 000:707.355   CPU is running
T079C 000:707.378    -- CPU_WriteMem(4 bytes @ 0xE000EDFC)
T079C 000:726.768    -- CPU_ReadMem(4 bytes @ 0xE000EDF0)
T079C 000:792.616    -- CPU_WriteMem(4 bytes @ 0xE0002000)
T079C 000:811.594    -- CPU_ReadMem(4 bytes @ 0xE000EDFC)
T079C 000:825.593    -- CPU_ReadMem(4 bytes @ 0xE0001000)
T079C 000:836.797 - 277.253ms
T079C 000:836.947 JLINK_HasError()
T079C 000:836.971 JLINK_ReadReg(R15 (PC))
T079C 000:836.997 - 0.030ms returns 0x00000144
T079C 000:837.007 JLINK_ReadReg(XPSR)
T079C 000:837.014 - 0.009ms returns 0x01000000
T079C 000:837.023 JLINK_Halt()
T079C 000:837.030 - 0.011ms returns 0x00
T079C 000:837.039 JLINK_IsHalted()
T079C 000:837.049 - 0.014ms returns TRUE
T079C 000:837.059 JLINK_ReadMemU32(0xE000EDF0, 0x1 Items)
T079C 000:837.083    -- CPU_ReadMem(4 bytes @ 0xE000EDF0)
T079C 000:850.560   Data:  03 00 03 00
T079C 000:850.596   Debug reg: DHCSR
T079C 000:850.602 - 13.545ms returns 1 (0x1)
T079C 000:850.640 JLINK_WriteU32_64(0xE000EDF0, 0xA05F0003)
T079C 000:850.647   Debug reg: DHCSR
T079C 000:850.927    -- CPU_WriteMem(4 bytes @ 0xE000EDF0)
T079C 001:081.491 - 230.869ms returns 0 (0x00000000)
T079C 001:081.570 JLINK_WriteU32_64(0xE000EDFC, 0x01000000)
T079C 001:081.580   Debug reg: DEMCR
T079C 001:081.622    -- CPU_WriteMem(4 bytes @ 0xE000EDFC)
T079C 001:097.485 - 15.935ms returns 0 (0x00000000)
T079C 001:097.711 JLINK_GetHWStatus(...)
T079C 001:101.497 - 3.817ms returns 0
T079C 001:101.661 JLINK_GetNumBPUnits(Type = 0xFFFFFF00)
T079C 001:101.673 - 0.015ms returns 0x06
T079C 001:101.679 JLINK_GetNumBPUnits(Type = 0xF0)
T079C 001:101.684 - 0.006ms returns 0x2000
T079C 001:101.689 JLINK_GetNumWPUnits()
T079C 001:101.694 - 0.006ms returns 4
T079C 001:101.739 JLINK_GetSpeed()
T079C 001:101.746 - 0.008ms returns 5000
T079C 001:101.778 JLINK_ReadMemU32(0xE000E004, 0x1 Items)
T079C 001:101.797    -- CPU_ReadMem(4 bytes @ 0xE000E004)
T079C 001:112.488   Data:  01 00 00 00
T079C 001:112.511 - 10.735ms returns 1 (0x1)
T079C 001:112.549 JLINK_ReadMemU32(0xE000E004, 0x1 Items)
T079C 001:112.566    -- CPU_ReadMem(4 bytes @ 0xE000E004)
T079C 001:124.319   Data:  01 00 00 00
T079C 001:124.339 - 11.792ms returns 1 (0x1)
T079C 001:124.389 JLINK_WriteMem(0xE0001000, 0x1C Bytes, ...)
T079C 001:124.396   Data:  01 00 00 00 00 00 00 00 00 00 00 00 00 00 00 00 ...
T079C 001:124.414    -- CPU_WriteMem(28 bytes @ 0xE0001000)
T079C 001:138.567 - 14.195ms returns 0x1C
T079C 001:138.622 JLINK_ReadMem(0xE0001000, 0x1C Bytes, ...)
T079C 001:138.640    -- CPU_ReadMem(28 bytes @ 0xE0001000)
T079C 001:149.365   Data:  01 00 00 40 00 00 00 00 00 00 00 00 00 00 00 00 ...
T079C 001:149.401 - 10.782ms returns 0
T079C 001:149.449 JLINK_HasError()
T079C 001:149.487 JLINK_ReadReg(R15 (PC))
T079C 001:149.498 - 0.014ms returns 0x00000144
T079C 001:149.506 JLINK_ReadReg(XPSR)
T079C 001:149.512 - 0.007ms returns 0x01000000
T079C 001:167.554 JLINK_ReadMem(0xE0001004, 0x4 Bytes, ...)
T079C 001:167.582   Data:  00 00 00 00
T079C 001:167.590   Debug reg: DWT_CYCCNT
T079C 001:167.596 - 0.043ms returns 0
T079C 001:174.209 JLINK_WriteMem(0x20000000, 0x400 Bytes, ...)
T079C 001:174.229   Data:  30 09 01 20 45 01 00 20 B5 11 00 20 C1 29 00 20 ...
T079C 001:174.432    -- CPU_WriteMem(1024 bytes @ 0x20000000)
T079C 001:247.590 - 73.413ms returns 0x400
T079C 001:247.669 JLINK_WriteMem(0x20000400, 0x400 Bytes, ...)
T079C 001:247.676   Data:  00 20 10 BD 40 F2 33 43 9A 42 A2 F2 33 42 03 DC ...
T079C 001:247.695    -- CPU_WriteMem(1024 bytes @ 0x20000400)
T079C 001:317.546 - 69.909ms returns 0x400
T079C 001:317.616 JLINK_WriteMem(0x20000800, 0x400 Bytes, ...)
T079C 001:317.623   Data:  64 EB 00 04 2B 0D 43 EA 0C 33 5E 18 44 EB 1C 50 ...
T079C 001:317.670    -- CPU_WriteMem(1024 bytes @ 0x20000800)
T079C 001:386.357 - 68.760ms returns 0x400
T079C 001:386.435 JLINK_WriteMem(0x20000C00, 0x400 Bytes, ...)
T079C 001:386.444   Data:  E9 FE BD F8 28 08 DD F8 08 18 01 30 AD F8 28 08 ...
T079C 001:386.495    -- CPU_WriteMem(1024 bytes @ 0x20000C00)
T079C 001:467.461 - 81.055ms returns 0x400
T079C 001:468.119 JLINK_WriteMem(0x20001000, 0x400 Bytes, ...)
T079C 001:468.143   Data:  0E 21 FF F7 D9 FF 00 20 00 21 FF F7 C7 FF 00 20 ...
T079C 001:468.176    -- CPU_WriteMem(1024 bytes @ 0x20001000)
T079C 001:765.433 - 297.331ms returns 0x400
T079C 001:765.498 JLINK_WriteMem(0x20001400, 0x400 Bytes, ...)
T079C 001:765.507   Data:  70 BD 00 BF 64 00 01 20 82 B0 E0 B5 CD E9 04 23 ...
T079C 001:765.556    -- CPU_WriteMem(1024 bytes @ 0x20001400)
T079C 001:842.666 - 77.186ms returns 0x400
T079C 001:842.721 JLINK_WriteMem(0x20001800, 0x400 Bytes, ...)
T079C 001:842.729   Data:  70 47 00 00 02 48 03 A1 02 68 00 20 FF F7 FC BD ...
T079C 001:842.779    -- CPU_WriteMem(1024 bytes @ 0x20001800)
T079C 001:928.818 - 86.127ms returns 0x400
T079C 001:928.907 JLINK_WriteMem(0x20001C00, 0x400 Bytes, ...)
T079C 001:928.936   Data:  10 49 FE F7 FD FA 10 49 FE F7 C8 FA FE F7 06 FC ...
T079C 001:928.957    -- CPU_WriteMem(1024 bytes @ 0x20001C00)
T079C 002:014.588 - 85.699ms returns 0x400
T079C 002:015.458 JLINK_WriteMem(0x20002000, 0x400 Bytes, ...)
T079C 002:015.481   Data:  D8 E7 DD E9 00 04 02 9B 04 EB 40 00 03 30 20 F0 ...
T079C 002:015.500    -- CPU_WriteMem(1024 bytes @ 0x20002000)
T079C 002:089.361 - 73.919ms returns 0x400
T079C 002:089.406 JLINK_WriteMem(0x20002400, 0x400 Bytes, ...)
T079C 002:089.413   Data:  0B B8 10 B5 04 46 80 B2 FF F7 F0 FF 01 46 20 0C ...
T079C 002:089.454    -- CPU_WriteMem(1024 bytes @ 0x20002400)
T079C 002:381.785 - 292.396ms returns 0x400
T079C 002:381.841 JLINK_WriteMem(0x20002800, 0x400 Bytes, ...)
T079C 002:381.849   Data:  39 46 22 46 4B 46 FF F7 20 FF 28 46 39 46 5A 46 ...
T079C 002:381.893    -- CPU_WriteMem(1024 bytes @ 0x20002800)
T079C 002:463.458 - 81.647ms returns 0x400
T079C 002:463.542 JLINK_WriteMem(0x20002C00, 0x400 Bytes, ...)
T079C 002:463.569   Data:  00 54 05 90 44 F0 02 04 76 1C 30 78 2E 28 16 D1 ...
T079C 002:463.590    -- CPU_WriteMem(1024 bytes @ 0x20002C00)
T079C 002:534.656 - 71.144ms returns 0x400
T079C 002:535.322 JLINK_WriteMem(0x20003000, 0x400 Bytes, ...)
T079C 002:535.340   Data:  02 D5 0F F2 68 2C 07 E0 5F EA C4 7C 02 D0 0F F2 ...
T079C 002:535.359    -- CPU_WriteMem(1024 bytes @ 0x20003000)
T079C 002:617.607 - 82.316ms returns 0x400
T079C 002:617.693 JLINK_WriteMem(0x20003400, 0x380 Bytes, ...)
T079C 002:617.719   Data:  3A 20 25 6C 75 0A 00 43 6F 72 65 4D 61 72 6B 20 ...
T079C 002:617.741    -- CPU_WriteMem(896 bytes @ 0x20003400)
T079C 002:680.357 - 62.681ms returns 0x380
T079C 002:737.218 JLINK_HasError()
T079C 002:737.242 JLINK_SetResetType(JLINKARM_CM3_RESET_TYPE_NORMAL)
T079C 002:737.248 - 0.008ms returns JLINKARM_CM3_RESET_TYPE_NORMAL
T079C 002:737.254 JLINK_Reset()
T079C 002:896.429    -- CPU_WriteMem(4 bytes @ 0xE000EDF0)
T079C 002:910.463    -- CPU_WriteMem(4 bytes @ 0xE000EDFC)
T079C 002:929.427   Reset: Halt core after reset via DEMCR.VC_CORERESET.
T079C 002:931.446   Reset: Reset device via AIRCR.SYSRESETREQ.
T079C 002:931.470    -- CPU_WriteMem(4 bytes @ 0xE000ED0C)
T079C 003:001.422    -- CPU_ReadMem(4 bytes @ 0xE000EDF0)
T079C 003:011.463    -- CPU_ReadMem(4 bytes @ 0xE000EDF0)
T079C 003:022.406    -- CPU_WriteMem(4 bytes @ 0xE000EDF0)
T079C 003:036.393    -- CPU_WriteMem(4 bytes @ 0xE000EDFC)
T079C 003:054.967    -- CPU_ReadMem(4 bytes @ 0xE000EDF0)
T079C 003:109.376    -- CPU_WriteMem(4 bytes @ 0xE0002000)
T079C 003:123.366    -- CPU_ReadMem(4 bytes @ 0xE000EDFC)
T079C 003:133.365    -- CPU_ReadMem(4 bytes @ 0xE0001000)
T079C 003:143.495 - 406.248ms
T079C 003:143.587 JLINK_HasError()
T079C 003:143.596 JLINK_ReadReg(R15 (PC))
T079C 003:143.607 - 0.013ms returns 0x00000144
T079C 003:143.613 JLINK_ReadReg(XPSR)
T079C 003:143.618 - 0.007ms returns 0x01000000
T079C 003:143.701 JLINK_HasError()
T079C 003:143.708 JLINK_ReadMemU32(0xE0001004, 0x1 Items)
T079C 003:143.717   Data:  00 00 00 00
T079C 003:143.724   Debug reg: DWT_CYCCNT
T079C 003:143.729 - 0.023ms returns 1 (0x1)
T079C 003:143.782 JLINK_ReadMem(0x00000144, 0x3C Bytes, ...)
T079C 003:143.790    -- CPU_ReadMem(60 bytes @ 0x00000144)
T079C 003:156.405   Data:  08 48 80 47 08 48 09 49 01 60 09 48 00 47 FE E7 ...
T079C 003:156.419 - 12.638ms returns 0
T079C 004:063.430 JLINK_ReadMem(0x200024D6, 0x2 Bytes, ...)
T079C 004:063.452    -- CPU_ReadMem(2 bytes @ 0x200024D6)
T079C 004:286.447   Data:  FF F7
T079C 004:286.482 - 223.054ms returns 0
T079C 004:286.540 JLINK_ReadMem(0x200024D8, 0x3C Bytes, ...)
T079C 004:286.577    -- CPU_ReadMem(60 bytes @ 0x200024D8)
T079C 004:301.507   Data:  67 FB FE F7 7F FD 00 F0 BF F9 32 4C 08 21 02 22 ...
T079C 004:301.542 - 15.003ms returns 0
T079C 004:603.211 JLINK_WriteMem(0x20000000, 0x400 Bytes, ...)
T079C 004:603.233   Data:  30 09 01 20 45 01 00 20 B5 11 00 20 C1 29 00 20 ...
T079C 004:603.252    -- CPU_WriteMem(1024 bytes @ 0x20000000)
T079C 004:787.373 - 184.195ms returns 0x400
T079C 004:787.458 JLINK_WriteMem(0x20000400, 0x400 Bytes, ...)
T079C 004:787.480   Data:  00 20 10 BD 40 F2 33 43 9A 42 A2 F2 33 42 03 DC ...
T079C 004:787.499    -- CPU_WriteMem(1024 bytes @ 0x20000400)
T079C 004:863.589 - 76.148ms returns 0x400
T079C 004:863.660 JLINK_WriteMem(0x20000800, 0x400 Bytes, ...)
T079C 004:863.686   Data:  64 EB 00 04 2B 0D 43 EA 0C 33 5E 18 44 EB 1C 50 ...
T079C 004:863.706    -- CPU_WriteMem(1024 bytes @ 0x20000800)
T079C 004:943.427 - 79.785ms returns 0x400
T079C 004:943.481 JLINK_WriteMem(0x20000C00, 0x400 Bytes, ...)
T079C 004:943.489   Data:  E9 FE BD F8 28 08 DD F8 08 18 01 30 AD F8 28 08 ...
T079C 004:943.533    -- CPU_WriteMem(1024 bytes @ 0x20000C00)
T079C 005:011.365 - 67.895ms returns 0x400
T079C 005:011.971 JLINK_WriteMem(0x20001000, 0x400 Bytes, ...)
T079C 005:011.981   Data:  0E 21 FF F7 D9 FF 00 20 00 21 FF F7 C7 FF 00 20 ...
T079C 005:011.997    -- CPU_WriteMem(1024 bytes @ 0x20001000)
T079C 005:080.380 - 68.422ms returns 0x400
T079C 005:080.421 JLINK_WriteMem(0x20001400, 0x400 Bytes, ...)
T079C 005:080.428   Data:  70 BD 00 BF 64 00 01 20 82 B0 E0 B5 CD E9 04 23 ...
T079C 005:080.465    -- CPU_WriteMem(1024 bytes @ 0x20001400)
T079C 005:148.564 - 68.175ms returns 0x400
T079C 005:148.652 JLINK_WriteMem(0x20001800, 0x400 Bytes, ...)
T079C 005:148.678   Data:  70 47 00 00 02 48 03 A1 02 68 00 20 FF F7 FC BD ...
T079C 005:148.698    -- CPU_WriteMem(1024 bytes @ 0x20001800)
T079C 005:221.420 - 72.786ms returns 0x400
T079C 005:221.473 JLINK_WriteMem(0x20001C00, 0x400 Bytes, ...)
T079C 005:221.480   Data:  10 49 FE F7 FD FA 10 49 FE F7 C8 FA FE F7 06 FC ...
T079C 005:221.500    -- CPU_WriteMem(1024 bytes @ 0x20001C00)
T079C 005:508.805 - 287.349ms returns 0x400
T079C 005:509.159 JLINK_WriteMem(0x20002000, 0x400 Bytes, ...)
T079C 005:509.171   Data:  D8 E7 DD E9 00 04 02 9B 04 EB 40 00 03 30 20 F0 ...
T079C 005:509.188    -- CPU_WriteMem(1024 bytes @ 0x20002000)
T079C 005:589.683 - 80.541ms returns 0x400
T079C 005:589.737 JLINK_WriteMem(0x20002400, 0x400 Bytes, ...)
T079C 005:589.745   Data:  0B B8 10 B5 04 46 80 B2 FF F7 F0 FF 01 46 20 0C ...
T079C 005:589.790    -- CPU_WriteMem(1024 bytes @ 0x20002400)
T079C 005:662.347 - 72.621ms returns 0x400
T079C 005:662.407 JLINK_WriteMem(0x20002800, 0x400 Bytes, ...)
T079C 005:662.414   Data:  39 46 22 46 4B 46 FF F7 20 FF 28 46 39 46 5A 46 ...
T079C 005:662.436    -- CPU_WriteMem(1024 bytes @ 0x20002800)
T079C 005:735.438 - 73.050ms returns 0x400
T079C 005:735.497 JLINK_WriteMem(0x20002C00, 0x400 Bytes, ...)
T079C 005:735.506   Data:  00 54 05 90 44 F0 02 04 76 1C 30 78 2E 28 16 D1 ...
T079C 005:735.550    -- CPU_WriteMem(1024 bytes @ 0x20002C00)
T079C 005:810.383 - 74.903ms returns 0x400
T079C 005:810.739 JLINK_WriteMem(0x20003000, 0x400 Bytes, ...)
T079C 005:810.753   Data:  02 D5 0F F2 68 2C 07 E0 5F EA C4 7C 02 D0 0F F2 ...
T079C 005:810.770    -- CPU_WriteMem(1024 bytes @ 0x20003000)
T079C 005:879.378 - 68.655ms returns 0x400
T079C 005:879.423 JLINK_WriteMem(0x20003400, 0x380 Bytes, ...)
T079C 005:879.430   Data:  3A 20 25 6C 75 0A 00 43 6F 72 65 4D 61 72 6B 20 ...
T079C 005:879.468    -- CPU_WriteMem(896 bytes @ 0x20003400)
T079C 005:944.664 - 65.258ms returns 0x380
T079C 005:995.920 JLINK_HasError()
T079C 005:995.945 JLINK_WriteReg(R13 (SP), 0x20010930)
T079C 005:995.956 - 0.012ms returns 0
T079C 005:995.962 JLINK_HasError()
T079C 005:995.967 JLINK_ReadReg(R0)
T079C 006:177.491 - 181.542ms returns 0x00000000
T079C 006:177.566 JLINK_ReadReg(R1)
T079C 006:177.593 - 0.029ms returns 0x00000000
T079C 006:177.603 JLINK_ReadReg(R2)
T079C 006:177.609 - 0.008ms returns 0x00000000
T079C 006:177.616 JLINK_ReadReg(R3)
T079C 006:177.620 - 0.007ms returns 0x00000000
T079C 006:177.626 JLINK_ReadReg(R4)
T079C 006:177.631 - 0.007ms returns 0x00000000
T079C 006:177.639 JLINK_ReadReg(R5)
T079C 006:177.643 - 0.007ms returns 0x00000000
T079C 006:177.749 JLINK_ReadReg(R6)
T079C 006:177.776 - 0.031ms returns 0x00000000
T079C 006:177.798 JLINK_ReadReg(R7)
T079C 006:177.813 - 0.018ms returns 0x00000000
T079C 006:177.823 JLINK_ReadReg(R8)
T079C 006:177.843 - 0.025ms returns 0x00000000
T079C 006:177.856 JLINK_ReadReg(R9)
T079C 006:177.864 - 0.012ms returns 0x00000000
T079C 006:177.875 JLINK_ReadReg(R10)
T079C 006:177.884 - 0.013ms returns 0x00000000
T079C 006:177.894 JLINK_ReadReg(R11)
T079C 006:177.903 - 0.012ms returns 0x00000000
T079C 006:177.912 JLINK_ReadReg(R12)
T079C 006:177.917 - 0.008ms returns 0x00000000
T079C 006:177.924 JLINK_ReadReg(R13 (SP))
T079C 006:177.931 - 0.009ms returns 0x20010930
T079C 006:177.938 JLINK_ReadReg(R14)
T079C 006:177.943 - 0.007ms returns 0xFFFFFFFF
T079C 006:177.954 JLINK_ReadReg(R15 (PC))
T079C 006:177.960 - 0.008ms returns 0x00000144
T079C 006:177.965 JLINK_ReadReg(XPSR)
T079C 006:177.970 - 0.020ms returns 0x01000000
T079C 006:177.989 JLINK_ReadReg(MSP)
T079C 006:177.994 - 0.007ms returns 0x20010930
T079C 006:177.999 JLINK_ReadReg(PSP)
T079C 006:178.004 - 0.006ms returns 0x00000000
T079C 006:178.009 JLINK_ReadReg(CFBP)
T079C 006:178.014 - 0.006ms returns 0x00000000
T079C 006:178.024 JLINK_HasError()
T079C 006:178.031 JLINK_WriteReg(R15 (PC), 0x20000144)
T079C 006:178.037 - 0.009ms returns 0
T079C 006:178.045 JLINK_HasError()
T079C 006:178.050 JLINK_ReadReg(R0)
T079C 006:178.056 - 0.008ms returns 0x00000000
T079C 006:178.061 JLINK_ReadReg(R1)
T079C 006:178.067 - 0.007ms returns 0x00000000
T079C 006:178.072 JLINK_ReadReg(R2)
T079C 006:178.078 - 0.008ms returns 0x00000000
T079C 006:178.084 JLINK_ReadReg(R3)
T079C 006:178.088 - 0.006ms returns 0x00000000
T079C 006:178.094 JLINK_ReadReg(R4)
T079C 006:178.099 - 0.007ms returns 0x00000000
T079C 006:178.104 JLINK_ReadReg(R5)
T079C 006:178.109 - 0.007ms returns 0x00000000
T079C 006:178.115 JLINK_ReadReg(R6)
T079C 006:178.119 - 0.006ms returns 0x00000000
T079C 006:178.125 JLINK_ReadReg(R7)
T079C 006:178.129 - 0.007ms returns 0x00000000
T079C 006:178.135 JLINK_ReadReg(R8)
T079C 006:178.141 - 0.008ms returns 0x00000000
T079C 006:178.146 JLINK_ReadReg(R9)
T079C 006:178.151 - 0.006ms returns 0x00000000
T079C 006:178.156 JLINK_ReadReg(R10)
T079C 006:178.161 - 0.007ms returns 0x00000000
T079C 006:178.166 JLINK_ReadReg(R11)
T079C 006:178.171 - 0.007ms returns 0x00000000
T079C 006:178.176 JLINK_ReadReg(R12)
T079C 006:178.181 - 0.007ms returns 0x00000000
T079C 006:178.186 JLINK_ReadReg(R13 (SP))
T079C 006:178.191 - 0.007ms returns 0x20010930
T079C 006:178.197 JLINK_ReadReg(R14)
T079C 006:178.201 - 0.006ms returns 0xFFFFFFFF
T079C 006:178.206 JLINK_ReadReg(R15 (PC))
T079C 006:178.211 - 0.006ms returns 0x20000144
T079C 006:178.216 JLINK_ReadReg(XPSR)
T079C 006:178.221 - 0.006ms returns 0x01000000
T079C 006:178.226 JLINK_ReadReg(MSP)
T079C 006:178.230 - 0.006ms returns 0x20010930
T079C 006:178.236 JLINK_ReadReg(PSP)
T079C 006:178.240 - 0.007ms returns 0x00000000
T079C 006:178.246 JLINK_ReadReg(CFBP)
T079C 006:178.251 - 0.007ms returns 0x00000000
T079C 006:178.258 JLINK_WriteMem(0xE000ED08, 0x4 Bytes, ...)
T079C 006:178.264   Data:  00 00 00 20
T079C 006:178.279    -- CPU_WriteMem(4 bytes @ 0xE000ED08)
T079C 006:194.426 - 16.208ms returns 0x4
T0FC8 006:200.682 JLINK_HasError()
T0FC8 006:200.705 JLINK_SetBPEx(Addr = 0x200024C0, Type = 0xFFFFFFF2)
T0FC8 006:200.719    -- CPU_ReadMem(4 bytes @ 0x200024C0)
T0FC8 006:211.297    -- CPU_WriteMem(4 bytes @ 0x200024C0)
T0FC8 006:226.356    -- CPU_ReadMem(4 bytes @ 0x200024C0)
T0FC8 006:236.334    -- CPU_WriteMem(4 bytes @ 0x200024C0)
T0FC8 006:250.344    -- CPU_ReadMem(2 bytes @ 0x200024C0)
T0FC8 006:263.369 - 62.681ms returns 0x00000001
T0FC8 006:263.432 JLINK_HasError()
T0FC8 006:263.440 JLINK_HasError()
T0FC8 006:263.446 JLINK_Go()
T0FC8 006:263.459    -- CPU_WriteMem(2 bytes @ 0x200024C0)
T0FC8 006:278.335    -- CPU_ReadMem(4 bytes @ 0xE0001000)
T0FC8 006:288.354    -- CPU_WriteMem(4 bytes @ 0xE0002008)
T0FC8 006:301.349    -- CPU_WriteMem(4 bytes @ 0xE000200C)
T0FC8 006:315.344    -- CPU_WriteMem(4 bytes @ 0xE0002010)
T0FC8 006:329.350    -- CPU_WriteMem(4 bytes @ 0xE0002014)
T0FC8 006:342.276    -- CPU_WriteMem(4 bytes @ 0xE0002018)
T0FC8 006:356.340    -- CPU_WriteMem(4 bytes @ 0xE000201C)
T0FC8 006:370.256    -- CPU_WriteMem(4 bytes @ 0xE0001004)
T0FC8 006:424.333 - 160.918ms
T0FC8 006:525.776 JLINK_HasError()
T0FC8 006:525.798 JLINK_IsHalted()
T0FC8 006:723.371    -- CPU_ReadMem(2 bytes @ 0x200024C0)
T0FC8 006:735.328 - 209.538ms returns TRUE
T0FC8 006:735.396 JLINK_HasError()
T0FC8 006:735.404 JLINK_Halt()
T0FC8 006:735.409 - 0.007ms returns 0x00
T0FC8 006:735.414 JLINK_IsHalted()
T0FC8 006:735.419 - 0.006ms returns TRUE
T0FC8 006:735.424 JLINK_IsHalted()
T0FC8 006:735.429 - 0.006ms returns TRUE
T0FC8 006:735.435 JLINK_IsHalted()
T0FC8 006:735.439 - 0.006ms returns TRUE
T0FC8 006:735.447 JLINK_HasError()
T0FC8 006:735.453 JLINK_ReadReg(R15 (PC))
T0FC8 006:735.461 - 0.010ms returns 0x200024C0
T0FC8 006:735.480 JLINK_ReadReg(XPSR)
T0FC8 006:735.485 - 0.007ms returns 0x61000000
T0FC8 006:735.491 JLINK_HasError()
T0FC8 006:735.496 JLINK_ClrBPEx(BPHandle = 0x00000001)
T0FC8 006:735.501 - 0.007ms returns 0x00
T0FC8 006:735.506 JLINK_HasError()
T0FC8 006:735.512 JLINK_HasError()
T0FC8 006:735.517 JLINK_ReadMemU32(0xE000ED30, 0x1 Items)
T0FC8 006:735.525    -- CPU_ReadMem(4 bytes @ 0xE000ED30)
T0FC8 006:745.333   Data:  02 00 00 00
T0FC8 006:745.344 - 9.829ms returns 1 (0x1)
T0FC8 006:745.403 JLINK_ReadMemU32(0xE0001028, 0x1 Items)
T0FC8 006:745.413    -- CPU_ReadMem(4 bytes @ 0xE0001028)
T0FC8 006:755.363   Data:  00 00 00 00
T0FC8 006:755.384   Debug reg: DWT_FUNC[0]
T0FC8 006:755.390 - 9.989ms returns 1 (0x1)
T0FC8 006:755.435 JLINK_ReadMemU32(0xE0001038, 0x1 Items)
T0FC8 006:755.448    -- CPU_ReadMem(4 bytes @ 0xE0001038)
T0FC8 006:767.341   Data:  00 02 00 00
T0FC8 006:767.367   Debug reg: DWT_FUNC[1]
T0FC8 006:767.373 - 11.939ms returns 1 (0x1)
T0FC8 006:767.420 JLINK_ReadMemU32(0xE0001048, 0x1 Items)
T0FC8 006:767.432    -- CPU_ReadMem(4 bytes @ 0xE0001048)
T0FC8 006:777.344   Data:  00 00 00 00
T0FC8 006:777.368   Debug reg: DWT_FUNC[2]
T0FC8 006:777.374 - 9.956ms returns 1 (0x1)
T0FC8 006:777.421 JLINK_ReadMemU32(0xE0001058, 0x1 Items)
T0FC8 006:777.431    -- CPU_ReadMem(4 bytes @ 0xE0001058)
T0FC8 006:789.334   Data:  00 00 00 00
T0FC8 006:789.360   Debug reg: DWT_FUNC[3]
T0FC8 006:789.366 - 11.948ms returns 1 (0x1)
T0FC8 006:789.533 JLINK_HasError()
T0FC8 006:789.559 JLINK_ReadReg(R0)
T0FC8 006:789.568 - 0.010ms returns 0x200024C1
T0FC8 006:789.573 JLINK_ReadReg(R1)
T0FC8 006:789.578 - 0.007ms returns 0x20010930
T0FC8 006:789.584 JLINK_ReadReg(R2)
T0FC8 006:789.588 - 0.006ms returns 0x00000000
T0FC8 006:789.593 JLINK_ReadReg(R3)
T0FC8 006:789.598 - 0.006ms returns 0x20002A05
T0FC8 006:789.603 JLINK_ReadReg(R4)
T0FC8 006:789.608 - 0.006ms returns 0x20003764
T0FC8 006:789.613 JLINK_ReadReg(R5)
T0FC8 006:789.617 - 0.006ms returns 0x20003764
T0FC8 006:789.622 JLINK_ReadReg(R6)
T0FC8 006:789.627 - 0.006ms returns 0x00000000
T0FC8 006:789.632 JLINK_ReadReg(R7)
T0FC8 006:789.636 - 0.006ms returns 0x00000000
T0FC8 006:789.642 JLINK_ReadReg(R8)
T0FC8 006:789.646 - 0.006ms returns 0x00000000
T0FC8 006:789.651 JLINK_ReadReg(R9)
T0FC8 006:789.656 - 0.006ms returns 0x00000000
T0FC8 006:789.661 JLINK_ReadReg(R10)
T0FC8 006:789.665 - 0.006ms returns 0x00000000
T0FC8 006:789.671 JLINK_ReadReg(R11)
T0FC8 006:789.675 - 0.006ms returns 0x00000000
T0FC8 006:789.680 JLINK_ReadReg(R12)
T0FC8 006:789.685 - 0.006ms returns 0x00000000
T0FC8 006:789.690 JLINK_ReadReg(R13 (SP))
T0FC8 006:789.695 - 0.007ms returns 0x20010930
T0FC8 006:789.700 JLINK_ReadReg(R14)
T0FC8 006:789.704 - 0.006ms returns 0x200008C9
T0FC8 006:789.710 JLINK_ReadReg(R15 (PC))
T0FC8 006:789.733 - 0.025ms returns 0x200024C0
T0FC8 006:789.738 JLINK_ReadReg(XPSR)
T0FC8 006:789.743 - 0.007ms returns 0x61000000
T0FC8 006:789.748 JLINK_ReadReg(MSP)
T0FC8 006:789.753 - 0.006ms returns 0x20010930
T0FC8 006:789.758 JLINK_ReadReg(PSP)
T0FC8 006:789.763 - 0.006ms returns 0x00000000
T0FC8 006:789.768 JLINK_ReadReg(CFBP)
T0FC8 006:789.777 - 0.013ms returns 0x00000000
T079C 006:812.324 JLINK_HasError()
T079C 006:812.348 JLINK_ReadMemU32(0xE0001004, 0x1 Items)
T079C 006:812.364    -- CPU_ReadMem(4 bytes @ 0xE0001004)
T079C 006:824.574   Data:  DE 8B 33 00
T079C 006:824.598   Debug reg: DWT_CYCCNT
T079C 006:824.604 - 12.258ms returns 1 (0x1)
T079C 006:828.778 JLINK_ReadMem(0x200023C0, 0x3C Bytes, ...)
T079C 006:828.810    -- CPU_ReadMem(64 bytes @ 0x200023C0)
T079C 006:842.544    -- Updating DA cache (64 bytes @ 0x200023C0)
T079C 006:842.603    -- Read from DA cache (60 bytes @ 0x200023C0)
T079C 006:842.617   Data:  0A 2A 04 D3 4A 69 01 32 4A 61 01 24 00 E0 05 24 ...
T079C 006:842.624 - 13.849ms returns 0
T079C 006:842.712 JLINK_ReadMem(0x200023FC, 0x4 Bytes, ...)
T079C 006:842.742    -- Read from DA cache (4 bytes @ 0x200023FC)
T079C 006:842.769   Data:  10 40 00 F0
T079C 006:842.777 - 0.067ms returns 0
T079C 006:842.783 JLINK_ReadMem(0x20002400, 0x38 Bytes, ...)
T079C 006:842.811    -- CPU_ReadMem(64 bytes @ 0x20002400)
T079C 006:858.408    -- Updating DA cache (64 bytes @ 0x20002400)
T079C 006:858.444    -- Read from DA cache (56 bytes @ 0x20002400)
T079C 006:858.452   Data:  0B B8 10 B5 04 46 80 B2 FF F7 F0 FF 01 46 20 0C ...
T079C 006:858.458 - 15.677ms returns 0
T079C 006:858.523 JLINK_ReadMem(0x20002438, 0x3C Bytes, ...)
T079C 006:858.540    -- CPU_ReadMem(64 bytes @ 0x20002440)
T079C 006:873.364    -- Updating DA cache (64 bytes @ 0x20002440)
T079C 006:873.401    -- Read from DA cache (60 bytes @ 0x20002438)
T079C 006:873.409   Data:  10 BD 00 BF 01 A0 FF FF 80 B5 C0 B2 FF F7 3E F9 ...
T079C 006:873.415 - 14.894ms returns 0
T079C 006:873.479 JLINK_ReadMem(0x20002474, 0x3C Bytes, ...)
T079C 006:873.498    -- CPU_ReadMem(64 bytes @ 0x20002480)
T079C 006:888.613    -- Updating DA cache (64 bytes @ 0x20002480)
T079C 006:888.637    -- Read from DA cache (60 bytes @ 0x20002474)
T079C 006:888.645   Data:  01 48 00 68 70 47 00 BF 5C 00 01 20 70 B5 00 25 ...
T079C 006:888.651 - 15.174ms returns 0
T079C 006:888.700 JLINK_ReadMem(0x200024B0, 0x3C Bytes, ...)
T079C 006:888.746    -- CPU_ReadMem(64 bytes @ 0x200024C0)
T079C 006:905.568    -- Updating DA cache (64 bytes @ 0x200024C0)
T079C 006:905.591    -- Read from DA cache (60 bytes @ 0x200024B0)
T079C 006:905.598    -- Merging zombie BP[0]: 0xB088 @ 0x200024C0
T079C 006:905.605   Data:  20 87 05 B9 60 87 01 35 E8 E7 00 20 70 BD 00 00 ...
T079C 006:905.611 - 16.914ms returns 0
T079C 008:987.435 JLINK_HasError()
T079C 009:020.546 JLINK_Close()
T079C 009:022.386    -- CPU_ReadMem(2 bytes @ 0x200024C0)
T079C 009:034.332    -- CPU_WriteMem(2 bytes @ 0x200024C0)
T079C 009:047.375    -- CPU_ReadMem(4 bytes @ 0xE0001000)
